Element, I1_1, Ang1_1, I1_2, Ang1_2, I1_3, Ang1_3, I1_4, Ang1_4, Iresid1, AngResid1, I2_1, Ang2_1, I2_2, Ang2_2, I2_3, Ang2_3, I2_4, Ang2_4, Iresid2, AngResid2, I3_1, Ang3_1, I3_2, Ang3_2, I3_3, Ang3_3, I3_4, Ang3_4, Iresid3, AngResid3
Vsource.SOURCE,    186.488,   149.68,    145.084,   -17.21,     55.897,   -66.39,          0,     0.00, 2.57244E-12,   -45.00,    186.488,   -30.32,    145.084,   162.79,     55.897,   113.61,          0,     0.00, 2.57244E-12,   135.00,          0,     0.00,          0,     0.00,          0,     0.00,          0,     0.00,          0,     0.00
Transformer.G_M1125934,    27.8444,   -60.32,     169.36,   -30.93,    99.5896,   -60.18,    287.352,   136.54,  8.2818E-6,   -47.48,    1076.11,   -60.13,    2185.98,   154.45,    1436.29,    -0.38,          0,     0.00, 9.09495E-13,     0.00,          0,     0.00,          0,     0.00,          0,     0.00,          0,     0.00,          0,     0.00
Reactor.G_M1125934,    287.352,   -43.46,          0,     0.00,          0,     0.00,          0,     0.00,    287.352,   -43.46,    287.352,   136.54,          0,     0.00,          0,     0.00,          0,     0.00,    287.352,   136.54,          0,     0.00,          0,     0.00,          0,     0.00,          0,     0.00,          0,     0.00
Line.HVMV_SUB_CONNECTOR,    562.853,   -37.99,    2233.88,   151.59,    439.433,    75.82,          0,     0.00,    1817.53,   141.06,    562.853,   142.01,    2233.88,   -28.41,    439.433,  -104.18,          0,     0.00,    1817.53,   -38.94,          0,     0.00,          0,     0.00,          0,     0.00,          0,     0.00,          0,     0.00
Line.LN5502549-1,    1.05076,   168.88,          0,     0.00,          0,     0.00,          0,     0.00,    1.05076,   168.88,    1.05084,   -11.14,          0,     0.00,          0,     0.00,          0,     0.00,    1.05084,   -11.14,          0,     0.00,          0,     0.00,          0,     0.00,          0,     0.00,          0,     0.00
Line.LN6259988-1,    1.49144,    67.25,          0,     0.00,          0,     0.00,          0,     0.00,    1.49144,    67.25,    1.49191,  -112.82,          0,     0.00,          0,     0.00,          0,     0.00,    1.49191,  -112.82,          0,     0.00,          0,     0.00,          0,     0.00,          0,     0.00,          0,     0.00
Line.LN6077796-1,   0.910546,   168.97,          0,     0.00,          0,     0.00,          0,     0.00,   0.910546,   168.97,   0.910573,   -11.04,          0,     0.00,          0,     0.00,          0,     0.00,   0.910573,   -11.04,          0,     0.00,          0,     0.00,          0,     0.00,          0,     0.00,          0,     0.00
Line.LN5835135-2,    8.37904,   168.79,          0,     0.00,          0,     0.00,          0,     0.00,    8.37904,   168.79,    8.37915,   -11.21,          0,     0.00,          0,     0.00,          0,     0.00,    8.37915,   -11.21,          0,     0.00,          0,     0.00,          0,     0.00,          0,     0.00,          0,     0.00
Line.LN5896826-1, 1.09344E-7,  -123.35,          0,     0.00,          0,     0.00,          0,     0.00, 1.09344E-7,  -123.35,          0,     0.00,          0,     0.00,          0,     0.00,          0,     0.00,          0,     0.00,          0,     0.00,          0,     0.00,          0,     0.00,          0,     0.00,          0,     0.00
Line.LN5714038-1,    1.63636,   171.81,          0,     0.00,          0,     0.00,          0,     0.00,    1.63636,   171.81,    1.63664,    -8.23,          0,     0.00,          0,     0.00,          0,     0.00,    1.63664,    -8.23,          0,     0.00,          0,     0.00,          0,     0.00,          0,     0.00,          0,     0.00
Line.LN5653457-1,    19.4286,   -60.01,    22.2404,   168.91,    17.4177,    60.65,          0,     0.00,    4.44138,   143.66,     19.429,   119.98,    22.2409,   -11.09,    17.4183,  -119.36,          0,     0.00,    4.44105,   -36.34,          0,     0.00,          0,     0.00,          0,     0.00,          0,     0.00,          0,     0.00
Line.LN5835173-1,    28.4281,   -59.46,    32.1321,   169.26,    52.7877,    60.01,          0,     0.00,    28.7527,    71.20,    28.4284,   120.53,    32.1324,   -10.74,    52.7881,  -120.00,          0,     0.00,    28.7525,  -108.80,          0,     0.00,          0,     0.00,          0,     0.00,          0,     0.00,          0,     0.00
Line.LN6321415-1,   0.753096,   172.30,          0,     0.00,          0,     0.00,          0,     0.00,   0.753096,   172.30,   0.753315,    -7.77,          0,     0.00,          0,     0.00,          0,     0.00,   0.753315,    -7.77,          0,     0.00,          0,     0.00,          0,     0.00,          0,     0.00,          0,     0.00
Line.LN5565092-1,    2.34977,    60.68,          0,     0.00,          0,     0.00,          0,     0.00,    2.34977,    60.68,    2.34978,  -119.32,          0,     0.00,          0,     0.00,          0,     0.00,    2.34978,  -119.32,          0,     0.00,          0,     0.00,          0,     0.00,          0,     0.00,          0,     0.00
Line.LN6073648-1,    3.08129,   -57.08,          0,     0.00,          0,     0.00,          0,     0.00,    3.08129,   -57.08,    3.08132,   122.92,          0,     0.00,          0,     0.00,          0,     0.00,    3.08132,   122.92,          0,     0.00,          0,     0.00,          0,     0.00,          0,     0.00,          0,     0.00
Line.LN5774457-1,    28.7722,   -60.10,    12.9357,   169.24,    25.1096,    60.54,          0,     0.00,    13.9963,    -2.72,    28.7724,   119.89,     12.936,   -10.76,    25.1099,  -119.46,          0,     0.00,    13.9964,   177.27,          0,     0.00,          0,     0.00,          0,     0.00,          0,     0.00,          0,     0.00
Line.LN5534966-3,    11.0479,   -59.71,          0,     0.00,          0,     0.00,          0,     0.00,    11.0479,   -59.71,     11.048,   120.29,          0,     0.00,          0,     0.00,          0,     0.00,     11.048,   120.29,          0,     0.00,          0,     0.00,          0,     0.00,          0,     0.00,          0,     0.00
Line.LN5859996-1,    1.48482,   169.32,          0,     0.00,          0,     0.00,          0,     0.00,    1.48482,   169.32,    1.48484,   -10.68,          0,     0.00,          0,     0.00,          0,     0.00,    1.48484,   -10.68,          0,     0.00,          0,     0.00,          0,     0.00,          0,     0.00,          0,     0.00
Line.LN6138610-2,    116.849,   -59.53,    47.0383,   169.43,    113.675,    60.40,          0,     0.00,     69.486,     5.58,    116.849,   120.47,    47.0385,   -10.57,    113.675,  -119.60,          0,     0.00,     69.486,  -174.42,          0,     0.00,          0,     0.00,          0,     0.00,          0,     0.00,          0,     0.00
Line.LN6258435-3,    2.55242,   -59.46,          0,     0.00,          0,     0.00,          0,     0.00,    2.55242,   -59.46,    2.55289,   120.50,          0,     0.00,          0,     0.00,          0,     0.00,    2.55289,   120.50,          0,     0.00,          0,     0.00,          0,     0.00,          0,     0.00,          0,     0.00
Line.LN5804790-1,    1.50428,    65.22,          0,     0.00,          0,     0.00,          0,     0.00,    1.50428,    65.22,    1.50513,  -114.90,          0,     0.00,          0,     0.00,          0,     0.00,    1.50513,  -114.90,          0,     0.00,          0,     0.00,          0,     0.00,          0,     0.00,          0,     0.00
Line.LN6900591-14,    4.57426,   -59.79,          0,     0.00,          0,     0.00,          0,     0.00,    4.57426,   -59.79,    4.57457,   120.20,          0,     0.00,          0,     0.00,          0,     0.00,    4.57457,   120.20,          0,     0.00,          0,     0.00,          0,     0.00,          0,     0.00,          0,     0.00
Line.LN6409873-1,    7.86745,   171.82,          0,     0.00,          0,     0.00,          0,     0.00,    7.86745,   171.82,    7.86765,    -8.18,          0,     0.00,          0,     0.00,          0,     0.00,    7.86765,    -8.18,          0,     0.00,          0,     0.00,          0,     0.00,          0,     0.00,          0,     0.00
Line.LN6014135-1,    9.68847,   -57.13,          0,     0.00,          0,     0.00,          0,     0.00,    9.68847,   -57.13,    9.68849,   122.87,          0,     0.00,          0,     0.00,          0,     0.00,    9.68849,   122.87,          0,     0.00,          0,     0.00,          0,     0.00,          0,     0.00,          0,     0.00
Line.LN6077784-1,    55.8968,   -60.04,    37.0567,   169.05,    46.6114,    60.61,          0,     0.00,    14.4255,    -3.08,    55.8972,   119.96,    37.0571,   -10.95,    46.6119,  -119.39,          0,     0.00,    14.4256,   176.92,          0,     0.00,          0,     0.00,          0,     0.00,          0,     0.00,          0,     0.00
Line.LN5744338-1,    17.4268,   170.14,          0,     0.00,          0,     0.00,          0,     0.00,    17.4268,   170.14,     17.427,    -9.87,          0,     0.00,          0,     0.00,          0,     0.00,     17.427,    -9.87,          0,     0.00,          0,     0.00,          0,     0.00,          0,     0.00,          0,     0.00
Line.LN6991381-4,    5.07485,   -59.61,          0,     0.00,          0,     0.00,          0,     0.00,    5.07485,   -59.61,    5.07525,   120.37,          0,     0.00,          0,     0.00,          0,     0.00,    5.07525,   120.37,          0,     0.00,          0,     0.00,          0,     0.00,          0,     0.00,          0,     0.00
Line.LN5774480-1,    17.0103,   168.98,          0,     0.00,          0,     0.00,          0,     0.00,    17.0103,   168.98,    17.0106,   -11.02,          0,     0.00,          0,     0.00,          0,     0.00,    17.0106,   -11.02,          0,     0.00,          0,     0.00,          0,     0.00,          0,     0.00,          0,     0.00
Line.LN5986938-3,    5.23787,   -59.58,          0,     0.00,          0,     0.00,          0,     0.00,    5.23787,   -59.58,    5.23791,   120.42,          0,     0.00,          0,     0.00,          0,     0.00,    5.23791,   120.42,          0,     0.00,          0,     0.00,          0,     0.00,          0,     0.00,          0,     0.00
Line.LN5894230-1,    1.45286,    68.73,          0,     0.00,          0,     0.00,          0,     0.00,    1.45286,    68.73,    1.45343,  -111.35,          0,     0.00,          0,     0.00,          0,     0.00,    1.45343,  -111.35,          0,     0.00,          0,     0.00,          0,     0.00,          0,     0.00,          0,     0.00
Line.LN5683858-3,    2.49237,   -59.75,    2.27076,   169.62,    3.21607,    60.84,          0,     0.00,    1.21663,    61.04,    2.49247,   120.24,    2.27086,   -10.39,    3.21619,  -119.17,          0,     0.00,    1.21655,  -118.96,          0,     0.00,          0,     0.00,          0,     0.00,          0,     0.00,          0,     0.00
Line.LN5920279-5,    339.306,   -48.47,    168.305,   179.59,    242.482,    73.61,          0,     0.00,    126.722,    -9.16,    339.306,   131.53,    168.305,    -0.41,    242.482,  -106.39,          0,     0.00,    126.722,   170.84,          0,     0.00,          0,     0.00,          0,     0.00,          0,     0.00,          0,     0.00
Line.LN6439600-1,    1.24994,   -59.76,          0,     0.00,          0,     0.00,          0,     0.00,    1.24994,   -59.76,    1.25047,   120.15,          0,     0.00,          0,     0.00,          0,     0.00,    1.25047,   120.15,          0,     0.00,          0,     0.00,          0,     0.00,          0,     0.00,          0,     0.00
Line.LN5589097-1,    1.88955,   -51.96,          0,     0.00,          0,     0.00,          0,     0.00,    1.88955,   -51.96,    1.88967,   128.03,          0,     0.00,          0,     0.00,          0,     0.00,    1.88967,   128.03,          0,     0.00,          0,     0.00,          0,     0.00,          0,     0.00,          0,     0.00
Line.LN5651975-1,     59.477,   -59.60,    8.07753,   169.95,     36.294,    60.92,          0,     0.00,    43.7405,   -24.55,    59.4772,   120.40,    8.07772,   -10.05,    36.2942,  -119.08,          0,     0.00,    43.7406,   155.45,          0,     0.00,          0,     0.00,          0,     0.00,          0,     0.00,          0,     0.00
Line.LN5865236-1,    2.54448,   -59.39,          0,     0.00,          0,     0.00,          0,     0.00,    2.54448,   -59.39,    2.54453,   120.61,          0,     0.00,          0,     0.00,          0,     0.00,    2.54453,   120.61,          0,     0.00,          0,     0.00,          0,     0.00,          0,     0.00,          0,     0.00
Line.LN5593232-1,    1.49196,    67.27,          0,     0.00,          0,     0.00,          0,     0.00,    1.49196,    67.27,    1.49259,  -112.82,          0,     0.00,          0,     0.00,          0,     0.00,    1.49259,  -112.82,          0,     0.00,          0,     0.00,          0,     0.00,          0,     0.00,          0,     0.00
Line.LN5740283-1,    1.73509,    64.11,          0,     0.00,          0,     0.00,          0,     0.00,    1.73509,    64.11,    1.73512,  -115.90,          0,     0.00,          0,     0.00,          0,     0.00,    1.73512,  -115.90,          0,     0.00,          0,     0.00,          0,     0.00,          0,     0.00,          0,     0.00
Line.LN6106559-1,    2.10982,   168.96,          0,     0.00,          0,     0.00,          0,     0.00,    2.10982,   168.96,    2.11006,   -11.07,          0,     0.00,          0,     0.00,          0,     0.00,    2.11006,   -11.07,          0,     0.00,          0,     0.00,          0,     0.00,          0,     0.00,          0,     0.00
Line.LN5714056-3,    49.7558,   -59.64,    6.18562,   169.89,     27.772,    60.91,          0,     0.00,    37.0055,   -28.36,    49.7565,   120.36,    6.18631,   -10.13,    27.7729,  -119.10,          0,     0.00,     37.006,   151.64,          0,     0.00,          0,     0.00,          0,     0.00,          0,     0.00,          0,     0.00
Line.LN5985355-3,    29.8103,   169.02,          0,     0.00,          0,     0.00,          0,     0.00,    29.8103,   169.02,    29.8105,   -10.98,          0,     0.00,          0,     0.00,          0,     0.00,    29.8105,   -10.98,          0,     0.00,          0,     0.00,          0,     0.00,          0,     0.00,          0,     0.00
Line.LN5531956-1,    1.24719,   -57.80,          0,     0.00,          0,     0.00,          0,     0.00,    1.24719,   -57.80,    1.24752,   122.15,          0,     0.00,          0,     0.00,          0,     0.00,    1.24752,   122.15,          0,     0.00,          0,     0.00,          0,     0.00,          0,     0.00,          0,     0.00
Line.LN5650048-1,   0.753787,   168.98,          0,     0.00,          0,     0.00,          0,     0.00,   0.753787,   168.98,   0.753933,   -11.06,          0,     0.00,          0,     0.00,          0,     0.00,   0.753933,   -11.06,          0,     0.00,          0,     0.00,          0,     0.00,          0,     0.00,          0,     0.00
Line.LN6290203-1,    21.8199,   -59.48,     27.546,   169.23,    43.2182,    59.96,          0,     0.00,    24.4307,    76.61,    21.8205,   120.52,    27.5465,   -10.78,    43.2189,  -120.04,          0,     0.00,    24.4301,  -103.39,          0,     0.00,          0,     0.00,          0,     0.00,          0,     0.00,          0,     0.00
Line.LN6134414-1,    2.96809,    62.03,          0,     0.00,          0,     0.00,          0,     0.00,    2.96809,    62.03,    2.96836,  -117.99,          0,     0.00,          0,     0.00,          0,     0.00,    2.96836,  -117.99,          0,     0.00,          0,     0.00,          0,     0.00,          0,     0.00,          0,     0.00
Line.LN6259998-2,    1.88964,    60.75,          0,     0.00,          0,     0.00,          0,     0.00,    1.88964,    60.75,     1.8897,  -119.26,          0,     0.00,          0,     0.00,          0,     0.00,     1.8897,  -119.26,          0,     0.00,          0,     0.00,          0,     0.00,          0,     0.00,          0,     0.00
Line.LN6078767-1,    131.986,   -38.25,    129.461,   -55.30,    100.928,    42.44,          0,     0.00,    278.972,   -25.48,    131.986,   141.75,     129.46,   124.70,    100.928,  -137.56,          0,     0.00,    278.972,   154.52,          0,     0.00,          0,     0.00,          0,     0.00,          0,     0.00,          0,     0.00
Line.LN6017300-1,   0.890642,    67.24,          0,     0.00,          0,     0.00,          0,     0.00,   0.890642,    67.24,   0.891025,  -112.85,          0,     0.00,          0,     0.00,          0,     0.00,   0.891025,  -112.85,          0,     0.00,          0,     0.00,          0,     0.00,          0,     0.00,          0,     0.00
Line.LN8979257-2,    1.28375,   -53.95,   0.707211,   170.63,    1.46524,    63.88,          0,     0.00,   0.805235,    29.21,    1.28421,   125.98,   0.707441,    -9.44,     1.4657,  -116.19,          0,     0.00,   0.805302,  -150.86,          0,     0.00,          0,     0.00,          0,     0.00,          0,     0.00,          0,     0.00
Line.LN81048109-1,    2.09207,   170.56,          0,     0.00,          0,     0.00,          0,     0.00,    2.09207,   170.56,    2.09304,    -9.54,          0,     0.00,          0,     0.00,          0,     0.00,    2.09304,    -9.54,          0,     0.00,          0,     0.00,          0,     0.00,          0,     0.00,          0,     0.00
Line.293471,     1.2943,   -57.17,   0.964206,   170.39,    1.49982,    66.54,          0,     0.00,    0.56821,    52.24,    1.29446,   122.79,   0.964412,    -9.64,    1.50001,  -113.48,          0,     0.00,   0.568171,  -127.77,          0,     0.00,          0,     0.00,          0,     0.00,          0,     0.00,          0,     0.00
Line.LN5534965-2,    1.27138,   -59.72,          0,     0.00,          0,     0.00,          0,     0.00,    1.27138,   -59.72,    1.27141,   120.27,          0,     0.00,          0,     0.00,          0,     0.00,    1.27141,   120.27,          0,     0.00,          0,     0.00,          0,     0.00,          0,     0.00,          0,     0.00
Line.LN5655683-1,    19.5324,   -59.69,          0,     0.00,          0,     0.00,          0,     0.00,    19.5324,   -59.69,    19.5325,   120.31,          0,     0.00,          0,     0.00,          0,     0.00,    19.5325,   120.31,          0,     0.00,          0,     0.00,          0,     0.00,          0,     0.00,          0,     0.00
Line.LN5686247-1,    1.13903,   173.35,          0,     0.00,          0,     0.00,          0,     0.00,    1.13903,   173.35,    1.13904,    -6.65,          0,     0.00,          0,     0.00,          0,     0.00,    1.13904,    -6.65,          0,     0.00,          0,     0.00,          0,     0.00,          0,     0.00,          0,     0.00
Line.LN6048642-1,  0.0010549,   -81.84,          0,     0.00,          0,     0.00,          0,     0.00,  0.0010549,   -81.84, 4.06738E-12,   -26.57,          0,     0.00,          0,     0.00,          0,     0.00, 4.06738E-12,   -26.57,          0,     0.00,          0,     0.00,          0,     0.00,          0,     0.00,          0,     0.00
Line.LN5928544-3,    15.9229,    60.32,          0,     0.00,          0,     0.00,          0,     0.00,    15.9229,    60.32,    15.9231,  -119.69,          0,     0.00,          0,     0.00,          0,     0.00,    15.9231,  -119.69,          0,     0.00,          0,     0.00,          0,     0.00,          0,     0.00,          0,     0.00
